 ****** HSPICE -- P-2019.06-SP1-1 win64 (Sep 27 2019) ******                    
  Copyright (c) 1986 - 2021 by Synopsys, Inc. All Rights Reserved.              
  This software and the associated documentation are proprietary
  to Synopsys, Inc. This software may only be used in accordance
  with the terms and conditions of a written license agreement with
  Synopsys, Inc. All other use, reproduction, or distribution of
  this software is strictly prohibited.
  Input File: circuito.sp                                                       
  Command line options: C:\synopsys\Hspice_P-2019.06-SP1-1\WIN64\hspice.com -i circuito.sp -o C:\Program Files\Polyspace\R2020a\cirop\Circuits\Valvulado\Power_Amp_01\circuito.lis
  Start time: Sat Jul 24 13:25:35 2021
  lic:  
  lic: FLEXlm: SDK_12.3 
  lic: USER:   Mara                 HOSTNAME: LAPTOP-NP99354M 
  lic: HOSTID: "5ccd5b11e8c8"       PID:      16596 
  lic: Using FLEXlm license file: 
  lic: 27000@LAPTOP-NP99354M 
  lic: Checkout 1 hspice 
  lic: License/Maintenance for hspice will expire on 30-dec-2030/2020.12 
  lic: 1(in_use)/99(total) FLOATING license(s) on SERVER 27000@LAPTOP-NP99354M 
  lic:   
  **warning** (circuito.sp:121) Inductance for the inductor l1 >= 0.1 henry, please verify it.
  **warning** For .option genk=1, 0 implicit mutual inductors are generated!

 *****************************************************************
 ******  option summary
 ******
 runlvl  = 1         bypass  = 2.0000000000  
  Opening plot unit= 79
 file=C:\Program Files\Polyspace\R2020a\cirop\Circuits\Valvulado\Power_Amp_01\circuito.pa0

FFT analysis is detected and FFT_ACCURATE is turned on automatically to improve accuracy. 
To disable FFT_ACCURATE, set .OPTION FFT_ACCURATE=0.
1****** HSPICE -- P-2019.06-SP1-1 win64 (Sep 27 2019) ******                    
 ******  
 ***amplificador de potencia valvulado

 ****** operating point information tnom=  25.000 temp=  25.000 ******
 ****** operating point status is all       simulation time is     0.           
    node    =voltage            node    =voltage

 +0:n001    = 300.0000000000  0:n002    = 420.0000000000 
 +0:n003    = 420.0000000000  0:n004    = 200.5117145884 
 +0:n005    = 191.2072816889  0:n006    = -36.9997718602 
 +0:n007    = 191.2072816889  0:n009    = 201.4687474898 
 +0:n010    = 2.215978584e-04 0:n011    = 2.215978584e-04
 +0:n012    = -37.0000000000  0:n013    = 420.0000000000 
 +0:n014    =   7.2632161345  0:n015    = 200.5442552579 
 +0:n016    = 420.0000000000  0:n017    = 199.8065541161 
 +0:n018    = -36.9997718602  0:n019    = -10.3654893531 
 +0:n020    = 200.5117135875  0:n021    = -11.0730250569 
 +0:n022    = 420.0000000000  0:n023    =   0.           
 +0:n024    = 1.006552578e-06 0:n025    = -20.0000000000 
 +0:n026    =   6.5525811317  0:n027    =   0.4775009700 
 +0:out     =   0.            1:5       = 2.236123843e-04
 +1:7       =   2.2787795373  2:5       = 2.236123843e-04
 +2:7       =   2.2787795373  3:5       = 200.5117165903 
 +3:7       =   3.6917832713  4:5       = 3.019657734e-06
 +4:7       =   3.1695843185  5:5       = -36.9997708232 
 +5:7       =   5.4679744349  6:5       = -36.9997708232 
 +6:7       =   5.4679744349 


 **** voltage sources

 subckt                                                                      
 element        0:v1             0:v2             0:v3             0:v4      
  volts    -37.0000000000   420.0000000000   -20.0000000000   300.0000000000 
  current  2.073997970e-09 -9.290933000e-02  9.931707062e-03 -1.914915295e-02
  power    7.673792488e-08   39.0219185985     0.1986341412     5.7447458837 

 subckt                   
 element        0:v5      
  volts      0.           
  current  1.006552578e-09
  power      0.           

     total voltage source power dissipation=   44.9652987002  watts



 **** resistors

 subckt                                                                      
 element        0:r1             0:r2             0:r3             0:r4      
  r value  900.0000000000   7.500000000e+05  2.500000000e+05  2.200000000e+05
  v drop    -8.9269749431    -9.6345106469   -10.3654893531  -2.215978584e-04
  current -9.918861048e-03 -1.284601420e-05 -4.146195741e-05 -1.007262993e-09
  power    8.854542404e-02  1.237650605e-04  4.297734781e-04  2.232073219e-13

 subckt                                                                      
 element        0:r5             0:r6             0:r7             0:r8      
  r value  2.200000000e+05  2.200000000e+04  2.200000000e+04  2.200000000e+05
  v drop  -2.215978584e-04 -108.7927183111  -108.7927183111  -2.281397767e-04
  current -1.007262993e-09 -4.945123560e-03 -4.945123560e-03 -1.036998985e-09
  power    2.232073219e-13    0.5379934344     0.5379934344   2.365807168e-13

 subckt                                                                      
 element        0:r9             0:r10            0:r11            0:r12     
  r value  2.200000000e+05  1.000000000e+03  4.700000000e+05  1.200000000e+05
  v drop   2.281397767e-04 -1.006552578e-06    0.            -199.8065541161 
  current  1.036998985e-09 -1.006552578e-09    0.            -1.665054618e-03
  power    2.365807168e-13  1.013148093e-15    0.               0.3326888256 

 subckt                                                                      
 element        0:r13            0:r14            0:r15            0:r16     
  r value  100.0000000000     8.0000000000   1.000000000e+03  800.0000000000 
  v drop    -0.9244922319     0.            -1.000940330e-06    6.0750801617 
  current -9.244922319e-03    0.            -1.000940330e-09  7.593850202e-03
  power    8.546858868e-03    0.             1.001881544e-15  4.613324871e-02

 subckt                                     xu1              xu1             
 element        0:r17            0:r18            1:re1            1:rcp     
  r value  3.300000000e+04   63.0000000000   1.000000000e+09  1.000000000e+09
  v drop     0.4775009700     0.4775009700     2.2787795373   183.9440655545 
  current  1.446972636e-05  7.579380476e-03  2.278779537e-09  1.839440656e-07
  power    6.909308373e-06  3.619161529e-03  5.192836180e-09  3.383541925e-05

 subckt   xu1              xu2              xu2              xu2             
 element        1:r1             2:re1            2:rcp            2:r1      
  r value  2.000000000e+03  1.000000000e+09  1.000000000e+09  2.000000000e+03
  v drop  -2.014525985e-06    2.2787795373   183.9440655545  -2.014525985e-06
  current -1.007262993e-09  2.278779537e-09  1.839440656e-07 -1.007262993e-09
  power    2.029157472e-15  5.192836180e-09  3.383541925e-05  2.029157472e-15

 subckt   xu3              xu3              xu3              xu4             
 element        3:re1            3:rcp            3:r1             4:re1     
  r value  1.000000000e+09  1.000000000e+09  2.000000000e+03  1.000000000e+09
  v drop     3.6917832713    98.5312525102  -2.001880603e-06    3.1695843185 
  current  3.691783271e-09  9.853125251e-08 -1.000940301e-09  3.169584319e-09
  power    1.362926372e-08  9.708407721e-06  2.003762974e-15  1.004626475e-08

 subckt   xu4              xu4              xu5              xu5             
 element        4:rcp            4:r1             5:re1            5:rcp     
  r value  1.000000000e+09  2.000000000e+03  1.000000000e+09  1.000000000e+09
  v drop   193.9591324558  -2.013105156e-06    5.4679744349   420.0000000000 
  current  1.939591325e-07 -1.006552578e-09  5.467974435e-09  4.200000000e-07
  power    3.762014506e-05  2.026296185e-15  2.989874442e-08  1.764000000e-04

 subckt   xu5              xu6              xu6              xu6             
 element        5:r1             6:re1            6:rcp            6:r1      
  r value  1.000000000e+03  1.000000000e+09  1.000000000e+09  1.000000000e+03
  v drop  -1.036998988e-06    5.4679744349   420.0000000000  -1.036998988e-06
  current -1.036998988e-09  5.467974435e-09  4.200000000e-07 -1.036998988e-09
  power    1.075366901e-15  2.989874442e-08  1.764000000e-04  1.075366901e-15


 **** inductors

 subckt                                                                      
 element        0:l1             0:l2             0:l3             0:l4      
  l value    3.8182000000     5.0614000000     3.8182000000     5.0614000000 
  v drop     0.               0.               0.               0.           
  current    0.               0.               0.               0.           
  power      0.               0.               0.               0.           

 subckt                   
 element        0:l5      
  l value  6.458000000e-02
  v drop     0.           
  current    0.           
  power      0.           


 **** voltage-controlled current sources


 subckt           xu1              xu2              xu3              xu4     
 element        1:g1             2:g1             3:g1             4:g1      
  v drop   183.9440655545   183.9440655545    98.5312525102   193.9591324558 
  current  4.944939616e-03  4.944939616e-03  9.258807295e-03  7.593657250e-03



 subckt           xu5              xu5              xu6              xu6     
 element        5:g1             5:g2             6:g1             6:g2      
  v drop   420.0000000000   420.0000000000   420.0000000000   420.0000000000 
  current  4.615583919e-02  2.984058130e-04  4.615583919e-02  2.984058130e-04




 **** voltage-controlled voltage sources


 subckt           xu1              xu2              xu3              xu4     
 element        1:e1             2:e1             3:e1             4:e1      
  volts      2.2787795373     2.2787795373     3.6917832713     3.1695843185 
  current -2.278779537e-09 -2.278779537e-09 -3.691783271e-09 -3.169584319e-09



 subckt           xu5              xu6     
 element        5:e1             6:e1      
  volts      5.4679744349     5.4679744349 
  current -5.467974435e-09 -5.467974435e-09




 **** diodes


 subckt                            xu1              xu2              xu3     
 element        0:d1             1:d3             2:d3             3:d3      
 model          0:nscw100x       1:dx             2:dx             3:dx      
  id       1.398250475e-05 -1.000000000e-09 -1.000000000e-09 -1.000000000e-09
  vd         1.6621933736    -7.2629925221    -7.2629925221    -0.9570308995 
  req      1.766575466e+04    0.               0.               0.           
  cap      8.562957990e-11  3.149900715e-12  3.149900715e-12  6.747692670e-12



 subckt           xu4              xu5              xu6     
 element        4:d3             5:d3             6:d3      
 model          4:dx             5:dx             6:dx      
  id      -1.000000000e-09 -1.000000000e-09 -1.000000000e-09
  vd        -6.5525781120   -36.9997708232   -36.9997708232 
  req        0.               0.               0.           
  cap      3.298565938e-12  1.454790345e-12  1.454790345e-12




 **** bipolar junction transistors


 subckt                                    
 element        0:q1             0:q2      
 model          0:x2n3904x       0:x2n2907x
 region    FwdActive       Saturation      
  ib       2.861596014e-05 -1.651072110e-03
  ic       9.890245087e-03 -7.593850208e-03
  vbe        0.7075357038    -0.7377011417 
  vce       18.3362411914  -3.254167042e-02
  vbc      -17.6287054876    -0.7051594713 
  vs        -7.2622271100  -199.8230648373 
  power      0.1813701662   1.465114351e-03
  betad    345.6198932016     4.5993449731 
  gm         0.3771071394     0.3424395725 
  rpi      897.8152233677   444.6318187372 
  rx        20.0000000000    10.0000000000 
  ro       1.189336439e+04    5.6525353833 
  cpi      1.425021372e-10  2.447384778e-10
  cmu      1.391904807e-12  1.861504970e-08
  cbx        0.               0.           
  ccs        0.               0.           
  betaac   338.5725305578   152.2595299208 
  ft       4.171018095e+08  2.366457886e+06



 ******
 ***amplificador de potencia valvulado

 ****** ac analysis tnom=  25.000 temp=  25.000 ******
 maxac= 2.45685046e+01    at= 4.07380278e+02
             from=   0.10000000    to= 1.00000000e+05
 locut= 2.43704528e+01
 hicut= 2.35197076e+01
 
 **warning** invalid fft start time, reset to transient start time 9.90000e-01

 ******
 ***amplificador de potencia valvulado

 ****** transient analysis tnom=  25.000 temp=  25.000 ******
 fourier components of transient response v(out)
 dc component =  0.2010692036
  
 harmonic frequency         fourier           normalized        phase             normalized        
 no       (hz)              component         component         (deg)             phase (deg)       
 1         1.0000000000e+03  1.9334383512e+01  1.0000000000     -9.0925389844e+01  0.               
 2         2.0000000000e+03  0.1586028253      8.2031488192e-03 -1.7593556637e+02 -8.5010176531e+01 
 3         3.0000000000e+03  9.8434189982e-02  5.0911470707e-03  8.8510795604e+01  1.7943618545e+02 
 4         4.0000000000e+03  3.2418453778e-02  1.6767254957e-03 -1.7908450542e+02 -8.8159115577e+01 
 5         5.0000000000e+03  9.2046076592e-02  4.7607453599e-03  8.5196844131e+01  1.7612223397e+02 
 6         6.0000000000e+03  1.0277701477e-03  5.3157637379e-05 -5.3286495266      8.5596740317e+01 
 7         7.0000000000e+03  3.6250450266e-03  1.8749214447e-04 -1.0183016968e+02 -1.0904779835e+01 
 8         8.0000000000e+03  1.3707788891e-03  7.0898505156e-05 -1.7856940316e+02 -8.7644013320e+01 
 9         9.0000000000e+03  2.2760441955e-03  1.1772002940e-04  8.1425883665e+01  1.7235127351e+02 
  
 total harmonic distortion =   1.0897  percent
  fft components of transient response v(out)

 Window: Rectangular

 DC: ON
 First Harmonic:  1.0000e+02
 Start Freq:  1.0000e+03
 Stop  Freq:  2.0000e+04

 dc component: mag(dB)=  -1.400E+01  mag=   1.995E-01  phase=   0.000E+00

 frequency    frequency    fft_mag     fft_mag    fft_phase
   index        (hz)        (dB)                    (deg)

    10       1.0000e+03    2.5728e+01   1.9338e+01   -9.0925e+01
    11       1.1000e+03   -6.9326e+01   3.4175e-04   -1.2619e+02
    12       1.2000e+03   -7.3234e+01   2.1792e-04   -1.3012e+02
    13       1.3000e+03   -6.6599e+01   4.6781e-04    3.3301e+01
    14       1.4000e+03   -6.9309e+01   3.4240e-04   -7.6261e+01
    15       1.5000e+03   -6.7060e+01   4.4359e-04    1.5683e+02
    16       1.6000e+03   -6.5473e+01   5.3254e-04    1.0934e+02
    17       1.7000e+03   -6.8603e+01   3.7140e-04   -4.5756e+01
    18       1.8000e+03   -6.1802e+01   8.1265e-04   -1.5380e+02
    19       1.9000e+03   -6.6764e+01   4.5899e-04    9.1223e+01
    20       2.0000e+03   -1.6013e+01   0.1582   -1.7580e+02
    21       2.1000e+03   -6.8745e+01   3.6540e-04   -1.3245e+02
    22       2.2000e+03   -6.3057e+01   7.0332e-04    1.3087e+02
    23       2.3000e+03   -6.7538e+01   4.1986e-04    2.3078e+01
    24       2.4000e+03   -6.6716e+01   4.6153e-04   -1.6689e+02
    25       2.5000e+03   -6.7372e+01   4.2795e-04    1.5293e+02
    26       2.6000e+03   -6.6274e+01   4.8561e-04    1.1814e+02
    27       2.7000e+03   -6.8857e+01   3.6072e-04   -5.5695e+01
    28       2.8000e+03   -7.0724e+01   2.9094e-04    8.0734e+01
    29       2.9000e+03   -6.7180e+01   4.3753e-04    8.5203e+01
    30       3.0000e+03   -2.0148e+01   9.8313e-02    8.8115e+01
    31       3.1000e+03   -6.8954e+01   3.5671e-04   -1.3677e+02
    32       3.2000e+03   -7.3507e+01   2.1118e-04   -1.2778e+02
    33       3.3000e+03   -6.7991e+01   3.9851e-04    1.3827e+01
    34       3.4000e+03   -6.5792e+01   5.1336e-04   -7.0641e+01
    35       3.5000e+03   -6.8073e+01   3.9478e-04    1.4786e+02
    36       3.6000e+03   -6.6944e+01   4.4958e-04    1.0628e+02
    37       3.7000e+03   -6.9129e+01   3.4960e-04   -6.2551e+01
    38       3.8000e+03   -6.3128e+01   6.9760e-04   -1.4606e+02
    39       3.9000e+03   -6.7464e+01   4.2347e-04    7.9646e+01
    40       4.0000e+03   -2.9791e+01   3.2393e-02   -1.7922e+02
    41       4.1000e+03   -6.8415e+01   3.7953e-04   -1.3859e+02
    42       4.2000e+03   -6.5803e+01   5.1267e-04    1.3240e+02
    43       4.3000e+03   -6.8696e+01   3.6744e-04    6.7096
    44       4.4000e+03   -6.6847e+01   4.5463e-04    1.7685e+02
    45       4.5000e+03   -6.8411e+01   3.7971e-04    1.4549e+02
    46       4.6000e+03   -6.5469e+01   5.3277e-04    1.4219e+02
    47       4.7000e+03   -6.9098e+01   3.5083e-04   -6.8360e+01
    48       4.8000e+03   -7.2023e+01   2.5052e-04    5.6251e+01
    49       4.9000e+03   -6.8416e+01   3.7951e-04    7.4315e+01
    50       5.0000e+03   -2.0612e+01   9.3195e-02    8.5314e+01
    51       5.1000e+03   -6.8937e+01   3.5741e-04   -1.4465e+02
    52       5.2000e+03   -7.2971e+01   2.2461e-04   -1.5569e+02
    53       5.3000e+03   -6.8843e+01   3.6130e-04    1.8666
    54       5.4000e+03   -6.6431e+01   4.7690e-04   -6.0721e+01
    55       5.5000e+03   -6.8585e+01   3.7217e-04    1.4266e+02
    56       5.6000e+03   -6.8450e+01   3.7799e-04    9.1899e+01
    57       5.7000e+03   -6.9066e+01   3.5215e-04   -7.3945e+01
    58       5.8000e+03   -6.4311e+01   6.0874e-04   -1.4658e+02
    59       5.9000e+03   -6.8684e+01   3.6796e-04    7.1358e+01
    60       6.0000e+03   -5.8968e+01   1.1261e-03   -1.4640e+01
    61       6.1000e+03   -6.8864e+01   3.6042e-04   -1.4986e+02
    62       6.2000e+03   -6.5768e+01   5.1478e-04    1.5892e+02
    63       6.3000e+03   -6.8924e+01   3.5794e-04   -1.5677
    64       6.4000e+03   -6.9549e+01   3.3308e-04    1.7591e+02
    65       6.5000e+03   -6.8455e+01   3.7779e-04    1.3809e+02
    66       6.6000e+03   -6.3875e+01   6.4012e-04    1.4501e+02
    67       6.7000e+03   -6.8979e+01   3.5566e-04   -7.7871e+01
    68       6.8000e+03   -7.3798e+01   2.0421e-04    6.9749e+01
    69       6.9000e+03   -6.8471e+01   3.7710e-04    6.6476e+01
    70       7.0000e+03   -5.1944e+01   2.5282e-03   -9.0325e+01
    71       7.1000e+03   -6.8610e+01   3.7110e-04   -1.5349e+02
    72       7.2000e+03   -7.4421e+01   1.9009e-04   -1.4182e+02
    73       7.3000e+03   -6.8725e+01   3.6621e-04   -7.9049
    74       7.4000e+03   -6.5673e+01   5.2043e-04   -3.3862e+01
    75       7.5000e+03   -6.8288e+01   3.8513e-04    1.3341e+02
    76       7.6000e+03   -6.7588e+01   4.1743e-04    9.4323e+01
    77       7.7000e+03   -6.8746e+01   3.6535e-04   -8.4329e+01
    78       7.8000e+03   -6.3620e+01   6.5917e-04   -1.3346e+02
    79       7.9000e+03   -6.8379e+01   3.8109e-04    6.0896e+01
    80       8.0000e+03   -5.9951e+01   1.0057e-03   -1.7454e+02
    81       8.1000e+03   -6.8406e+01   3.7992e-04   -1.5952e+02
    82       8.2000e+03   -6.7782e+01   4.0823e-04    1.5072e+02
    83       8.3000e+03   -6.8612e+01   3.7101e-04   -1.3884e+01
    84       8.4000e+03   -6.7277e+01   4.3266e-04    1.6558e+02
    85       8.5000e+03   -6.8159e+01   3.9087e-04    1.2743e+02
    86       8.6000e+03   -6.3433e+01   6.7349e-04    1.4187e+02
    87       8.7000e+03   -6.8536e+01   3.7430e-04   -9.0411e+01
    88       8.8000e+03   -7.2590e+01   2.3470e-04    4.8163e+01
    89       8.9000e+03   -6.8262e+01   3.8628e-04    5.4175e+01
    90       9.0000e+03   -4.8798e+01   3.6316e-03    7.8499e+01
    91       9.1000e+03   -6.8252e+01   3.8674e-04   -1.6569e+02
    92       9.2000e+03   -7.3124e+01   2.2070e-04   -1.7252e+02
    93       9.3000e+03   -6.8474e+01   3.7696e-04   -2.1268e+01
    94       9.4000e+03   -6.4108e+01   6.2318e-04   -3.5385e+01
    95       9.5000e+03   -6.8145e+01   3.9151e-04    1.2098e+02
    96       9.6000e+03   -6.7650e+01   4.1448e-04    7.2614e+01
    97       9.7000e+03   -6.8419e+01   3.7935e-04   -9.7376e+01
    98       9.8000e+03   -6.4952e+01   5.6548e-04   -1.3342e+02
    99       9.9000e+03   -6.8356e+01   3.8212e-04    4.7292e+01
   100       1.0000e+04   -7.6742e+01   1.4550e-04   -9.3818e+01
   101       1.0100e+04   -6.8199e+01   3.8908e-04   -1.7196e+02
   102       1.0200e+04   -6.8447e+01   3.7812e-04    1.6931e+02
